# vsim -cvgperinstance -vopt -voptargs="+acc" -coverage -sva -c -do " log -r /* ;coverage save -onexit mem_cov7;run -all; exit" -wlf wave_file7.wlf -l test7.log -sv_seed 80871271 work.top "+UVM_TESTNAME=over_run_error_test" 
# Start time: 14:34:00 on Mar 09,2026
# ** Note: (vsim-8009) Loading existing optimized design _opt
# //  Questa Sim-64
# //  Version 2022.1_2 linux_x86_64 Apr  2 2022
# //
# //  Copyright 1991-2022 Mentor Graphics Corporation
# //  All Rights Reserved.
# //
# //  QuestaSim and its associated documentation contain trade
# //  secrets and commercial or financial information that are the property of
# //  Mentor Graphics Corporation and are privileged, confidential,
# //  and exempt from disclosure under the Freedom of Information Act,
# //  5 U.S.C. Section 552. Furthermore, this information
# //  is prohibited from disclosure under the Trade Secrets Act,
# //  18 U.S.C. Section 1905.
# //
# Loading sv_std.std
# Loading work.uart_if(fast)
# Loading mtiUvm.uvm_pkg(fast)
# Loading work.pkg(fast)
# Loading mtiUvm.questa_uvm_pkg(fast)
# Loading work.top(fast)
# Loading work.uart_if(fast__2)
# Loading work.uart_16550(fast)
# Loading work.uart_register_file(fast)
# Loading work.uart_tx(fast)
# Loading work.uart_fifo(fast)
# Loading work.uart_rx(fast)
# Loading /home/cad/eda/Mentor_Graphics/Questasim/questasim/uvm-1.1d/linux_x86_64/uvm_dpi.so
# ** Warning: (vsim-8634) Code was not compiled with coverage options.
#  log -r /* 
# coverage save -onexit mem_cov7
# run -all
# ----------------------------------------------------------------
# UVM-1.1d
# (C) 2007-2013 Mentor Graphics Corporation
# (C) 2007-2013 Cadence Design Systems, Inc.
# (C) 2006-2013 Synopsys, Inc.
# (C) 2011-2013 Cypress Semiconductor Corp.
# ----------------------------------------------------------------
# 
#   ***********       IMPORTANT RELEASE NOTES         ************
# 
#   You are using a version of the UVM library that has been compiled
#   with `UVM_NO_DEPRECATED undefined.
#   See http://www.eda.org/svdb/view.php?id=3313 for more details.
# 
#   You are using a version of the UVM library that has been compiled
#   with `UVM_OBJECT_MUST_HAVE_CONSTRUCTOR undefined.
#   See http://www.eda.org/svdb/view.php?id=3770 for more details.
# 
#       (Specify +UVM_NO_RELNOTES to turn off this notice)
# 
# UVM_INFO verilog_src/questa_uvm_pkg-1.2/src/questa_uvm_pkg.sv(277) @ 0: reporter [Questa UVM] QUESTA_UVM-1.2.3
# UVM_INFO verilog_src/questa_uvm_pkg-1.2/src/questa_uvm_pkg.sv(278) @ 0: reporter [Questa UVM]  questa_uvm::init(+struct)
# UVM_INFO @ 0: reporter [RNTST] Running test over_run_error_test...
# UVM_INFO @ 0: reporter [UVMTOP] UVM testbench topology:
# --------------------------------------------------------------------
# Name                         Type                        Size  Value
# --------------------------------------------------------------------
# sb_fifo_0                    uvm_tlm_analysis_fifo #(T)  -     @513 
#   analysis_export            uvm_analysis_imp            -     @552 
#   get_ap                     uvm_analysis_port           -     @544 
#   get_peek_export            uvm_get_peek_imp            -     @528 
#   put_ap                     uvm_analysis_port           -     @536 
#   put_export                 uvm_put_imp                 -     @520 
# sb_fifo_1                    uvm_tlm_analysis_fifo #(T)  -     @560 
#   analysis_export            uvm_analysis_imp            -     @599 
#   get_ap                     uvm_analysis_port           -     @591 
#   get_peek_export            uvm_get_peek_imp            -     @575 
#   put_ap                     uvm_analysis_port           -     @583 
#   put_export                 uvm_put_imp                 -     @567 
# uvm_test_top                 over_run_error_test         -     @475 
#   envh                       env                         -     @491 
#     agt_top                  agent_top                   -     @499 
#       agth[0]                agent                       -     @608 
#         drvh                 driver                      -     @645 
#           rsp_port           uvm_analysis_port           -     @660 
#           seq_item_port      uvm_seq_item_pull_port      -     @652 
#         monh                 monitor                     -     @630 
#           mon_ap             uvm_analysis_port           -     @637 
#         seqrh                sequencer                   -     @668 
#           rsp_export         uvm_analysis_export         -     @675 
#           seq_item_export    uvm_seq_item_pull_imp       -     @769 
#           arbitration_queue  array                       0     -    
#           lock_queue         array                       0     -    
#           num_last_reqs      integral                    32    'd1  
#           num_last_rsps      integral                    32    'd1  
#       agth[1]                agent                       -     @620 
#         drvh                 driver                      -     @804 
#           rsp_port           uvm_analysis_port           -     @819 
#           seq_item_port      uvm_seq_item_pull_port      -     @811 
#         monh                 monitor                     -     @789 
#           mon_ap             uvm_analysis_port           -     @796 
#         seqrh                sequencer                   -     @827 
#           rsp_export         uvm_analysis_export         -     @834 
#           seq_item_export    uvm_seq_item_pull_imp       -     @928 
#           arbitration_queue  array                       0     -    
#           lock_queue         array                       0     -    
#           num_last_reqs      integral                    32    'd1  
#           num_last_rsps      integral                    32    'd1  
#     sbh                      sb                          -     @506 
# --------------------------------------------------------------------
# 
# UVM_INFO ../agent/driver.sv(67) @ 75: uvm_test_top.envh.agt_top.agth[0].drvh [DRIVER] DATA FROM DRIVER 
#  ------------------------------------
# Name           Type      Size  Value
# ------------------------------------
# req            xtn       -     @969 
#   paddr        integral  32    'h20 
#   presetn      integral  1     'd0  
#   pwdata       integral  32    'd0  
#   prdata       integral  32    'd0  
#   psel         integral  1     'd0  
#   pwrite       integral  1     1    
#   penable      integral  1     'd0  
#   pready       integral  1     'd0  
#   pslaverr     integral  1     'd0  
#   FCR          integral  8     'd0  
#   LCR          integral  8     'd0  
#   DIV1         integral  8     'd0  
#   IER          integral  8     'd0  
#   MSR          integral  8     'd0  
#   IIR          integral  8     'b0  
#   IRQ          integral  8     'd0  
#   MCR          integral  8     'b0  
#   LSR          integral  8     'b0  
#   data_in_thr  integral  1     'd0  
#   data_in_rbr  integral  1     'd0  
#   d1_access    integral  1     'd0  
# ------------------------------------
# 
# UVM_INFO ../agent/monitor.sv(118) @ 75: uvm_test_top.envh.agt_top.agth[0].monh [APB MONITOR] PRINTING FROM MONITOR
# UVM_INFO ../agent/driver.sv(67) @ 105: uvm_test_top.envh.agt_top.agth[0].drvh [DRIVER] DATA FROM DRIVER 
#  ------------------------------------
# Name           Type      Size  Value
# ------------------------------------
# req            xtn       -     @969 
#   paddr        integral  32    'h1c 
#   presetn      integral  1     'd0  
#   pwdata       integral  32    'd54 
#   prdata       integral  32    'd0  
#   psel         integral  1     'd0  
#   pwrite       integral  1     1    
#   penable      integral  1     'd0  
#   pready       integral  1     'd0  
#   pslaverr     integral  1     'd0  
#   FCR          integral  8     'd0  
#   LCR          integral  8     'd0  
#   DIV1         integral  8     'd0  
#   IER          integral  8     'd0  
#   MSR          integral  8     'd0  
#   IIR          integral  8     'b0  
#   IRQ          integral  8     'd0  
#   MCR          integral  8     'b0  
#   LSR          integral  8     'b0  
#   data_in_thr  integral  1     'd0  
#   data_in_rbr  integral  1     'd0  
#   d1_access    integral  1     'd0  
# ------------------------------------
# 
# UVM_INFO ../agent/monitor.sv(118) @ 105: uvm_test_top.envh.agt_top.agth[0].monh [APB MONITOR] PRINTING FROM MONITOR
# UVM_INFO ../agent/driver.sv(67) @ 135: uvm_test_top.envh.agt_top.agth[0].drvh [DRIVER] DATA FROM DRIVER 
#  ------------------------------------
# Name           Type      Size  Value
# ------------------------------------
# req            xtn       -     @969 
#   paddr        integral  32    'hc  
#   presetn      integral  1     'd0  
#   pwdata       integral  32    'd3  
#   prdata       integral  32    'd0  
#   psel         integral  1     'd0  
#   pwrite       integral  1     1    
#   penable      integral  1     'd0  
#   pready       integral  1     'd0  
#   pslaverr     integral  1     'd0  
#   FCR          integral  8     'd0  
#   LCR          integral  8     'd0  
#   DIV1         integral  8     'd0  
#   IER          integral  8     'd0  
#   MSR          integral  8     'd0  
#   IIR          integral  8     'b0  
#   IRQ          integral  8     'd0  
#   MCR          integral  8     'b0  
#   LSR          integral  8     'b0  
#   data_in_thr  integral  1     'd0  
#   data_in_rbr  integral  1     'd0  
#   d1_access    integral  1     'd0  
# ------------------------------------
# 
# UVM_INFO ../agent/monitor.sv(118) @ 135: uvm_test_top.envh.agt_top.agth[0].monh [APB MONITOR] PRINTING FROM MONITOR
# UVM_INFO ../agent/driver.sv(67) @ 150: uvm_test_top.envh.agt_top.agth[1].drvh [DRIVER] DATA FROM DRIVER 
#  ------------------------------------
# Name           Type      Size  Value
# ------------------------------------
# req            xtn       -     @973 
#   paddr        integral  32    'h20 
#   presetn      integral  1     'd0  
#   pwdata       integral  32    'd0  
#   prdata       integral  32    'd0  
#   psel         integral  1     'd0  
#   pwrite       integral  1     1    
#   penable      integral  1     'd0  
#   pready       integral  1     'd0  
#   pslaverr     integral  1     'd0  
#   FCR          integral  8     'd0  
#   LCR          integral  8     'd0  
#   DIV1         integral  8     'd0  
#   IER          integral  8     'd0  
#   MSR          integral  8     'd0  
#   IIR          integral  8     'b0  
#   IRQ          integral  8     'd0  
#   MCR          integral  8     'b0  
#   LSR          integral  8     'b0  
#   data_in_thr  integral  1     'd0  
#   data_in_rbr  integral  1     'd0  
#   d1_access    integral  1     'd0  
# ------------------------------------
# 
# UVM_INFO ../agent/monitor.sv(118) @ 150: uvm_test_top.envh.agt_top.agth[1].monh [APB MONITOR] PRINTING FROM MONITOR
# UVM_INFO ../agent/driver.sv(67) @ 165: uvm_test_top.envh.agt_top.agth[0].drvh [DRIVER] DATA FROM DRIVER 
#  ------------------------------------
# Name           Type      Size  Value
# ------------------------------------
# req            xtn       -     @969 
#   paddr        integral  32    'h8  
#   presetn      integral  1     'd0  
#   pwdata       integral  32    'd198
#   prdata       integral  32    'd0  
#   psel         integral  1     'd0  
#   pwrite       integral  1     1    
#   penable      integral  1     'd0  
#   pready       integral  1     'd0  
#   pslaverr     integral  1     'd0  
#   FCR          integral  8     'd0  
#   LCR          integral  8     'd0  
#   DIV1         integral  8     'd0  
#   IER          integral  8     'd0  
#   MSR          integral  8     'd0  
#   IIR          integral  8     'b0  
#   IRQ          integral  8     'd0  
#   MCR          integral  8     'b0  
#   LSR          integral  8     'b0  
#   data_in_thr  integral  1     'd0  
#   data_in_rbr  integral  1     'd0  
#   d1_access    integral  1     'd0  
# ------------------------------------
# 
# UVM_INFO ../agent/monitor.sv(118) @ 165: uvm_test_top.envh.agt_top.agth[0].monh [APB MONITOR] PRINTING FROM MONITOR
# UVM_INFO ../agent/driver.sv(67) @ 195: uvm_test_top.envh.agt_top.agth[0].drvh [DRIVER] DATA FROM DRIVER 
#  ------------------------------------
# Name           Type      Size  Value
# ------------------------------------
# req            xtn       -     @969 
#   paddr        integral  32    'h4  
#   presetn      integral  1     'd0  
#   pwdata       integral  32    'd4  
#   prdata       integral  32    'd0  
#   psel         integral  1     'd0  
#   pwrite       integral  1     1    
#   penable      integral  1     'd0  
#   pready       integral  1     'd0  
#   pslaverr     integral  1     'd0  
#   FCR          integral  8     'd0  
#   LCR          integral  8     'd0  
#   DIV1         integral  8     'd0  
#   IER          integral  8     'd0  
#   MSR          integral  8     'd0  
#   IIR          integral  8     'b0  
#   IRQ          integral  8     'd0  
#   MCR          integral  8     'b0  
#   LSR          integral  8     'b0  
#   data_in_thr  integral  1     'd0  
#   data_in_rbr  integral  1     'd0  
#   d1_access    integral  1     'd0  
# ------------------------------------
# 
# UVM_INFO ../agent/monitor.sv(118) @ 195: uvm_test_top.envh.agt_top.agth[0].monh [APB MONITOR] PRINTING FROM MONITOR
# UVM_INFO ../agent/driver.sv(67) @ 210: uvm_test_top.envh.agt_top.agth[1].drvh [DRIVER] DATA FROM DRIVER 
#  ------------------------------------
# Name           Type      Size  Value
# ------------------------------------
# req            xtn       -     @973 
#   paddr        integral  32    'h1c 
#   presetn      integral  1     'd0  
#   pwdata       integral  32    'd27 
#   prdata       integral  32    'd0  
#   psel         integral  1     'd0  
#   pwrite       integral  1     1    
#   penable      integral  1     'd0  
#   pready       integral  1     'd0  
#   pslaverr     integral  1     'd0  
#   FCR          integral  8     'd0  
#   LCR          integral  8     'd0  
#   DIV1         integral  8     'd0  
#   IER          integral  8     'd0  
#   MSR          integral  8     'd0  
#   IIR          integral  8     'b0  
#   IRQ          integral  8     'd0  
#   MCR          integral  8     'b0  
#   LSR          integral  8     'b0  
#   data_in_thr  integral  1     'd0  
#   data_in_rbr  integral  1     'd0  
#   d1_access    integral  1     'd0  
# ------------------------------------
# 
# UVM_INFO ../agent/monitor.sv(118) @ 210: uvm_test_top.envh.agt_top.agth[1].monh [APB MONITOR] PRINTING FROM MONITOR
# UVM_INFO ../agent/driver.sv(67) @ 225: uvm_test_top.envh.agt_top.agth[0].drvh [DRIVER] DATA FROM DRIVER 
#  -----------------------------------------
# Name           Type      Size  Value     
# -----------------------------------------
# req            xtn       -     @969      
#   paddr        integral  32    'h0       
#   presetn      integral  1     'd0       
#   pwdata       integral  32    2423683908
#   prdata       integral  32    'd0       
#   psel         integral  1     'd0       
#   pwrite       integral  1     1         
#   penable      integral  1     'd0       
#   pready       integral  1     'd0       
#   pslaverr     integral  1     'd0       
#   FCR          integral  8     'd0       
#   LCR          integral  8     'd0       
#   DIV1         integral  8     'd0       
#   IER          integral  8     'd0       
#   MSR          integral  8     'd0       
#   IIR          integral  8     'b0       
#   IRQ          integral  8     'd0       
#   MCR          integral  8     'b0       
#   LSR          integral  8     'b0       
#   data_in_thr  integral  1     'd0       
#   data_in_rbr  integral  1     'd0       
#   d1_access    integral  1     'd0       
# -----------------------------------------
# 
# UVM_INFO ../agent/monitor.sv(118) @ 225: uvm_test_top.envh.agt_top.agth[0].monh [APB MONITOR] PRINTING FROM MONITOR
# UVM_INFO ../agent/driver.sv(67) @ 255: uvm_test_top.envh.agt_top.agth[0].drvh [DRIVER] DATA FROM DRIVER 
#  -----------------------------------------
# Name           Type      Size  Value     
# -----------------------------------------
# req            xtn       -     @969      
#   paddr        integral  32    'h0       
#   presetn      integral  1     'd0       
#   pwdata       integral  32    3789667079
#   prdata       integral  32    'd0       
#   psel         integral  1     'd0       
#   pwrite       integral  1     1         
#   penable      integral  1     'd0       
#   pready       integral  1     'd0       
#   pslaverr     integral  1     'd0       
#   FCR          integral  8     'd0       
#   LCR          integral  8     'd0       
#   DIV1         integral  8     'd0       
#   IER          integral  8     'd0       
#   MSR          integral  8     'd0       
#   IIR          integral  8     'b0       
#   IRQ          integral  8     'd0       
#   MCR          integral  8     'b0       
#   LSR          integral  8     'b0       
#   data_in_thr  integral  1     'd0       
#   data_in_rbr  integral  1     'd0       
#   d1_access    integral  1     'd0       
# -----------------------------------------
# 
# UVM_INFO ../agent/monitor.sv(118) @ 255: uvm_test_top.envh.agt_top.agth[0].monh [APB MONITOR] PRINTING FROM MONITOR
# UVM_INFO ../agent/driver.sv(67) @ 270: uvm_test_top.envh.agt_top.agth[1].drvh [DRIVER] DATA FROM DRIVER 
#  ------------------------------------
# Name           Type      Size  Value
# ------------------------------------
# req            xtn       -     @973 
#   paddr        integral  32    'hc  
#   presetn      integral  1     'd0  
#   pwdata       integral  32    'd3  
#   prdata       integral  32    'd0  
#   psel         integral  1     'd0  
#   pwrite       integral  1     1    
#   penable      integral  1     'd0  
#   pready       integral  1     'd0  
#   pslaverr     integral  1     'd0  
#   FCR          integral  8     'd0  
#   LCR          integral  8     'd0  
#   DIV1         integral  8     'd0  
#   IER          integral  8     'd0  
#   MSR          integral  8     'd0  
#   IIR          integral  8     'b0  
#   IRQ          integral  8     'd0  
#   MCR          integral  8     'b0  
#   LSR          integral  8     'b0  
#   data_in_thr  integral  1     'd0  
#   data_in_rbr  integral  1     'd0  
#   d1_access    integral  1     'd0  
# ------------------------------------
# 
# UVM_INFO ../agent/monitor.sv(118) @ 270: uvm_test_top.envh.agt_top.agth[1].monh [APB MONITOR] PRINTING FROM MONITOR
# UVM_INFO ../agent/driver.sv(67) @ 285: uvm_test_top.envh.agt_top.agth[0].drvh [DRIVER] DATA FROM DRIVER 
#  -----------------------------------------
# Name           Type      Size  Value     
# -----------------------------------------
# req            xtn       -     @969      
#   paddr        integral  32    'h0       
#   presetn      integral  1     'd0       
#   pwdata       integral  32    3287683388
#   prdata       integral  32    'd0       
#   psel         integral  1     'd0       
#   pwrite       integral  1     1         
#   penable      integral  1     'd0       
#   pready       integral  1     'd0       
#   pslaverr     integral  1     'd0       
#   FCR          integral  8     'd0       
#   LCR          integral  8     'd0       
#   DIV1         integral  8     'd0       
#   IER          integral  8     'd0       
#   MSR          integral  8     'd0       
#   IIR          integral  8     'b0       
#   IRQ          integral  8     'd0       
#   MCR          integral  8     'b0       
#   LSR          integral  8     'b0       
#   data_in_thr  integral  1     'd0       
#   data_in_rbr  integral  1     'd0       
#   d1_access    integral  1     'd0       
# -----------------------------------------
# 
# UVM_INFO ../agent/monitor.sv(118) @ 285: uvm_test_top.envh.agt_top.agth[0].monh [APB MONITOR] PRINTING FROM MONITOR
# UVM_INFO ../agent/driver.sv(67) @ 315: uvm_test_top.envh.agt_top.agth[0].drvh [DRIVER] DATA FROM DRIVER 
#  -------------------------------------------
# Name           Type      Size  Value       
# -------------------------------------------
# req            xtn       -     @969        
#   paddr        integral  32    'h0         
#   presetn      integral  1     'd0         
#   pwdata       integral  32    'd1598032535
#   prdata       integral  32    'd0         
#   psel         integral  1     'd0         
#   pwrite       integral  1     1           
#   penable      integral  1     'd0         
#   pready       integral  1     'd0         
#   pslaverr     integral  1     'd0         
#   FCR          integral  8     'd0         
#   LCR          integral  8     'd0         
#   DIV1         integral  8     'd0         
#   IER          integral  8     'd0         
#   MSR          integral  8     'd0         
#   IIR          integral  8     'b0         
#   IRQ          integral  8     'd0         
#   MCR          integral  8     'b0         
#   LSR          integral  8     'b0         
#   data_in_thr  integral  1     'd0         
#   data_in_rbr  integral  1     'd0         
#   d1_access    integral  1     'd0         
# -------------------------------------------
# 
# UVM_INFO ../agent/monitor.sv(118) @ 315: uvm_test_top.envh.agt_top.agth[0].monh [APB MONITOR] PRINTING FROM MONITOR
# UVM_INFO ../agent/driver.sv(67) @ 330: uvm_test_top.envh.agt_top.agth[1].drvh [DRIVER] DATA FROM DRIVER 
#  ------------------------------------
# Name           Type      Size  Value
# ------------------------------------
# req            xtn       -     @973 
#   paddr        integral  32    'h8  
#   presetn      integral  1     'd0  
#   pwdata       integral  32    'd198
#   prdata       integral  32    'd0  
#   psel         integral  1     'd0  
#   pwrite       integral  1     1    
#   penable      integral  1     'd0  
#   pready       integral  1     'd0  
#   pslaverr     integral  1     'd0  
#   FCR          integral  8     'd0  
#   LCR          integral  8     'd0  
#   DIV1         integral  8     'd0  
#   IER          integral  8     'd0  
#   MSR          integral  8     'd0  
#   IIR          integral  8     'b0  
#   IRQ          integral  8     'd0  
#   MCR          integral  8     'b0  
#   LSR          integral  8     'b0  
#   data_in_thr  integral  1     'd0  
#   data_in_rbr  integral  1     'd0  
#   d1_access    integral  1     'd0  
# ------------------------------------
# 
# UVM_INFO ../agent/monitor.sv(118) @ 330: uvm_test_top.envh.agt_top.agth[1].monh [APB MONITOR] PRINTING FROM MONITOR
# UVM_INFO ../agent/driver.sv(67) @ 345: uvm_test_top.envh.agt_top.agth[0].drvh [DRIVER] DATA FROM DRIVER 
#  -----------------------------------------
# Name           Type      Size  Value     
# -----------------------------------------
# req            xtn       -     @969      
#   paddr        integral  32    'h0       
#   presetn      integral  1     'd0       
#   pwdata       integral  32    4196067317
#   prdata       integral  32    'd0       
#   psel         integral  1     'd0       
#   pwrite       integral  1     1         
#   penable      integral  1     'd0       
#   pready       integral  1     'd0       
#   pslaverr     integral  1     'd0       
#   FCR          integral  8     'd0       
#   LCR          integral  8     'd0       
#   DIV1         integral  8     'd0       
#   IER          integral  8     'd0       
#   MSR          integral  8     'd0       
#   IIR          integral  8     'b0       
#   IRQ          integral  8     'd0       
#   MCR          integral  8     'b0       
#   LSR          integral  8     'b0       
#   data_in_thr  integral  1     'd0       
#   data_in_rbr  integral  1     'd0       
#   d1_access    integral  1     'd0       
# -----------------------------------------
# 
# UVM_INFO ../agent/monitor.sv(118) @ 345: uvm_test_top.envh.agt_top.agth[0].monh [APB MONITOR] PRINTING FROM MONITOR
# UVM_INFO ../agent/driver.sv(67) @ 375: uvm_test_top.envh.agt_top.agth[0].drvh [DRIVER] DATA FROM DRIVER 
#  -----------------------------------------
# Name           Type      Size  Value     
# -----------------------------------------
# req            xtn       -     @969      
#   paddr        integral  32    'h0       
#   presetn      integral  1     'd0       
#   pwdata       integral  32    3218424455
#   prdata       integral  32    'd0       
#   psel         integral  1     'd0       
#   pwrite       integral  1     1         
#   penable      integral  1     'd0       
#   pready       integral  1     'd0       
#   pslaverr     integral  1     'd0       
#   FCR          integral  8     'd0       
#   LCR          integral  8     'd0       
#   DIV1         integral  8     'd0       
#   IER          integral  8     'd0       
#   MSR          integral  8     'd0       
#   IIR          integral  8     'b0       
#   IRQ          integral  8     'd0       
#   MCR          integral  8     'b0       
#   LSR          integral  8     'b0       
#   data_in_thr  integral  1     'd0       
#   data_in_rbr  integral  1     'd0       
#   d1_access    integral  1     'd0       
# -----------------------------------------
# 
# UVM_INFO ../agent/monitor.sv(118) @ 375: uvm_test_top.envh.agt_top.agth[0].monh [APB MONITOR] PRINTING FROM MONITOR
# UVM_INFO ../agent/driver.sv(67) @ 390: uvm_test_top.envh.agt_top.agth[1].drvh [DRIVER] DATA FROM DRIVER 
#  ------------------------------------
# Name           Type      Size  Value
# ------------------------------------
# req            xtn       -     @973 
#   paddr        integral  32    'h4  
#   presetn      integral  1     'd0  
#   pwdata       integral  32    'd4  
#   prdata       integral  32    'd0  
#   psel         integral  1     'd0  
#   pwrite       integral  1     1    
#   penable      integral  1     'd0  
#   pready       integral  1     'd0  
#   pslaverr     integral  1     'd0  
#   FCR          integral  8     'd0  
#   LCR          integral  8     'd0  
#   DIV1         integral  8     'd0  
#   IER          integral  8     'd0  
#   MSR          integral  8     'd0  
#   IIR          integral  8     'b0  
#   IRQ          integral  8     'd0  
#   MCR          integral  8     'b0  
#   LSR          integral  8     'b0  
#   data_in_thr  integral  1     'd0  
#   data_in_rbr  integral  1     'd0  
#   d1_access    integral  1     'd0  
# ------------------------------------
# 
# UVM_INFO ../agent/monitor.sv(118) @ 390: uvm_test_top.envh.agt_top.agth[1].monh [APB MONITOR] PRINTING FROM MONITOR
# UVM_INFO ../agent/driver.sv(67) @ 405: uvm_test_top.envh.agt_top.agth[0].drvh [DRIVER] DATA FROM DRIVER 
#  ------------------------------------------
# Name           Type      Size  Value      
# ------------------------------------------
# req            xtn       -     @969       
#   paddr        integral  32    'h0        
#   presetn      integral  1     'd0        
#   pwdata       integral  32    'd843751947
#   prdata       integral  32    'd0        
#   psel         integral  1     'd0        
#   pwrite       integral  1     1          
#   penable      integral  1     'd0        
#   pready       integral  1     'd0        
#   pslaverr     integral  1     'd0        
#   FCR          integral  8     'd0        
#   LCR          integral  8     'd0        
#   DIV1         integral  8     'd0        
#   IER          integral  8     'd0        
#   MSR          integral  8     'd0        
#   IIR          integral  8     'b0        
#   IRQ          integral  8     'd0        
#   MCR          integral  8     'b0        
#   LSR          integral  8     'b0        
#   data_in_thr  integral  1     'd0        
#   data_in_rbr  integral  1     'd0        
#   d1_access    integral  1     'd0        
# ------------------------------------------
# 
# UVM_INFO ../agent/monitor.sv(118) @ 405: uvm_test_top.envh.agt_top.agth[0].monh [APB MONITOR] PRINTING FROM MONITOR
# UVM_INFO ../agent/driver.sv(67) @ 435: uvm_test_top.envh.agt_top.agth[0].drvh [DRIVER] DATA FROM DRIVER 
#  -------------------------------------------
# Name           Type      Size  Value       
# -------------------------------------------
# req            xtn       -     @969        
#   paddr        integral  32    'h0         
#   presetn      integral  1     'd0         
#   pwdata       integral  32    'd2075928552
#   prdata       integral  32    'd0         
#   psel         integral  1     'd0         
#   pwrite       integral  1     1           
#   penable      integral  1     'd0         
#   pready       integral  1     'd0         
#   pslaverr     integral  1     'd0         
#   FCR          integral  8     'd0         
#   LCR          integral  8     'd0         
#   DIV1         integral  8     'd0         
#   IER          integral  8     'd0         
#   MSR          integral  8     'd0         
#   IIR          integral  8     'b0         
#   IRQ          integral  8     'd0         
#   MCR          integral  8     'b0         
#   LSR          integral  8     'b0         
#   data_in_thr  integral  1     'd0         
#   data_in_rbr  integral  1     'd0         
#   d1_access    integral  1     'd0         
# -------------------------------------------
# 
# UVM_INFO ../agent/monitor.sv(118) @ 435: uvm_test_top.envh.agt_top.agth[0].monh [APB MONITOR] PRINTING FROM MONITOR
# UVM_INFO ../agent/driver.sv(67) @ 450: uvm_test_top.envh.agt_top.agth[1].drvh [DRIVER] DATA FROM DRIVER 
#  ------------------------------------------
# Name           Type      Size  Value      
# ------------------------------------------
# req            xtn       -     @973       
#   paddr        integral  32    'h0        
#   presetn      integral  1     'd0        
#   pwdata       integral  32    'd895734160
#   prdata       integral  32    'd0        
#   psel         integral  1     'd0        
#   pwrite       integral  1     1          
#   penable      integral  1     'd0        
#   pready       integral  1     'd0        
#   pslaverr     integral  1     'd0        
#   FCR          integral  8     'd0        
#   LCR          integral  8     'd0        
#   DIV1         integral  8     'd0        
#   IER          integral  8     'd0        
#   MSR          integral  8     'd0        
#   IIR          integral  8     'b0        
#   IRQ          integral  8     'd0        
#   MCR          integral  8     'b0        
#   LSR          integral  8     'b0        
#   data_in_thr  integral  1     'd0        
#   data_in_rbr  integral  1     'd0        
#   d1_access    integral  1     'd0        
# ------------------------------------------
# 
# UVM_INFO ../agent/monitor.sv(118) @ 450: uvm_test_top.envh.agt_top.agth[1].monh [APB MONITOR] PRINTING FROM MONITOR
# UVM_INFO ../agent/driver.sv(67) @ 465: uvm_test_top.envh.agt_top.agth[0].drvh [DRIVER] DATA FROM DRIVER 
#  -------------------------------------------
# Name           Type      Size  Value       
# -------------------------------------------
# req            xtn       -     @969        
#   paddr        integral  32    'h0         
#   presetn      integral  1     'd0         
#   pwdata       integral  32    'd1185250540
#   prdata       integral  32    'd0         
#   psel         integral  1     'd0         
#   pwrite       integral  1     1           
#   penable      integral  1     'd0         
#   pready       integral  1     'd0         
#   pslaverr     integral  1     'd0         
#   FCR          integral  8     'd0         
#   LCR          integral  8     'd0         
#   DIV1         integral  8     'd0         
#   IER          integral  8     'd0         
#   MSR          integral  8     'd0         
#   IIR          integral  8     'b0         
#   IRQ          integral  8     'd0         
#   MCR          integral  8     'b0         
#   LSR          integral  8     'b0         
#   data_in_thr  integral  1     'd0         
#   data_in_rbr  integral  1     'd0         
#   d1_access    integral  1     'd0         
# -------------------------------------------
# 
# UVM_INFO ../agent/monitor.sv(118) @ 465: uvm_test_top.envh.agt_top.agth[0].monh [APB MONITOR] PRINTING FROM MONITOR
# UVM_INFO ../agent/driver.sv(67) @ 495: uvm_test_top.envh.agt_top.agth[0].drvh [DRIVER] DATA FROM DRIVER 
#  -------------------------------------------
# Name           Type      Size  Value       
# -------------------------------------------
# req            xtn       -     @969        
#   paddr        integral  32    'h0         
#   presetn      integral  1     'd0         
#   pwdata       integral  32    'd1252738840
#   prdata       integral  32    'd0         
#   psel         integral  1     'd0         
#   pwrite       integral  1     1           
#   penable      integral  1     'd0         
#   pready       integral  1     'd0         
#   pslaverr     integral  1     'd0         
#   FCR          integral  8     'd0         
#   LCR          integral  8     'd0         
#   DIV1         integral  8     'd0         
#   IER          integral  8     'd0         
#   MSR          integral  8     'd0         
#   IIR          integral  8     'b0         
#   IRQ          integral  8     'd0         
#   MCR          integral  8     'b0         
#   LSR          integral  8     'b0         
#   data_in_thr  integral  1     'd0         
#   data_in_rbr  integral  1     'd0         
#   d1_access    integral  1     'd0         
# -------------------------------------------
# 
# UVM_INFO ../agent/monitor.sv(118) @ 495: uvm_test_top.envh.agt_top.agth[0].monh [APB MONITOR] PRINTING FROM MONITOR
# UVM_INFO ../agent/driver.sv(67) @ 510: uvm_test_top.envh.agt_top.agth[1].drvh [DRIVER] DATA FROM DRIVER 
#  -------------------------------------------
# Name           Type      Size  Value       
# -------------------------------------------
# req            xtn       -     @973        
#   paddr        integral  32    'h0         
#   presetn      integral  1     'd0         
#   pwdata       integral  32    'd1035976655
#   prdata       integral  32    'd0         
#   psel         integral  1     'd0         
#   pwrite       integral  1     1           
#   penable      integral  1     'd0         
#   pready       integral  1     'd0         
#   pslaverr     integral  1     'd0         
#   FCR          integral  8     'd0         
#   LCR          integral  8     'd0         
#   DIV1         integral  8     'd0         
#   IER          integral  8     'd0         
#   MSR          integral  8     'd0         
#   IIR          integral  8     'b0         
#   IRQ          integral  8     'd0         
#   MCR          integral  8     'b0         
#   LSR          integral  8     'b0         
#   data_in_thr  integral  1     'd0         
#   data_in_rbr  integral  1     'd0         
#   d1_access    integral  1     'd0         
# -------------------------------------------
# 
# UVM_INFO ../agent/monitor.sv(118) @ 510: uvm_test_top.envh.agt_top.agth[1].monh [APB MONITOR] PRINTING FROM MONITOR
# UVM_INFO ../agent/driver.sv(67) @ 525: uvm_test_top.envh.agt_top.agth[0].drvh [DRIVER] DATA FROM DRIVER 
#  -----------------------------------------
# Name           Type      Size  Value     
# -----------------------------------------
# req            xtn       -     @969      
#   paddr        integral  32    'h0       
#   presetn      integral  1     'd0       
#   pwdata       integral  32    2722590891
#   prdata       integral  32    'd0       
#   psel         integral  1     'd0       
#   pwrite       integral  1     1         
#   penable      integral  1     'd0       
#   pready       integral  1     'd0       
#   pslaverr     integral  1     'd0       
#   FCR          integral  8     'd0       
#   LCR          integral  8     'd0       
#   DIV1         integral  8     'd0       
#   IER          integral  8     'd0       
#   MSR          integral  8     'd0       
#   IIR          integral  8     'b0       
#   IRQ          integral  8     'd0       
#   MCR          integral  8     'b0       
#   LSR          integral  8     'b0       
#   data_in_thr  integral  1     'd0       
#   data_in_rbr  integral  1     'd0       
#   d1_access    integral  1     'd0       
# -----------------------------------------
# 
# UVM_INFO ../agent/monitor.sv(118) @ 525: uvm_test_top.envh.agt_top.agth[0].monh [APB MONITOR] PRINTING FROM MONITOR
# UVM_INFO ../agent/driver.sv(67) @ 555: uvm_test_top.envh.agt_top.agth[0].drvh [DRIVER] DATA FROM DRIVER 
#  -----------------------------------------
# Name           Type      Size  Value     
# -----------------------------------------
# req            xtn       -     @969      
#   paddr        integral  32    'h0       
#   presetn      integral  1     'd0       
#   pwdata       integral  32    2474057588
#   prdata       integral  32    'd0       
#   psel         integral  1     'd0       
#   pwrite       integral  1     1         
#   penable      integral  1     'd0       
#   pready       integral  1     'd0       
#   pslaverr     integral  1     'd0       
#   FCR          integral  8     'd0       
#   LCR          integral  8     'd0       
#   DIV1         integral  8     'd0       
#   IER          integral  8     'd0       
#   MSR          integral  8     'd0       
#   IIR          integral  8     'b0       
#   IRQ          integral  8     'd0       
#   MCR          integral  8     'b0       
#   LSR          integral  8     'b0       
#   data_in_thr  integral  1     'd0       
#   data_in_rbr  integral  1     'd0       
#   d1_access    integral  1     'd0       
# -----------------------------------------
# 
# UVM_INFO ../agent/monitor.sv(118) @ 555: uvm_test_top.envh.agt_top.agth[0].monh [APB MONITOR] PRINTING FROM MONITOR
# UVM_INFO ../agent/driver.sv(67) @ 570: uvm_test_top.envh.agt_top.agth[1].drvh [DRIVER] DATA FROM DRIVER 
#  -----------------------------------------
# Name           Type      Size  Value     
# -----------------------------------------
# req            xtn       -     @973      
#   paddr        integral  32    'h0       
#   presetn      integral  1     'd0       
#   pwdata       integral  32    2462857403
#   prdata       integral  32    'd0       
#   psel         integral  1     'd0       
#   pwrite       integral  1     1         
#   penable      integral  1     'd0       
#   pready       integral  1     'd0       
#   pslaverr     integral  1     'd0       
#   FCR          integral  8     'd0       
#   LCR          integral  8     'd0       
#   DIV1         integral  8     'd0       
#   IER          integral  8     'd0       
#   MSR          integral  8     'd0       
#   IIR          integral  8     'b0       
#   IRQ          integral  8     'd0       
#   MCR          integral  8     'b0       
#   LSR          integral  8     'b0       
#   data_in_thr  integral  1     'd0       
#   data_in_rbr  integral  1     'd0       
#   d1_access    integral  1     'd0       
# -----------------------------------------
# 
# UVM_INFO ../agent/monitor.sv(118) @ 570: uvm_test_top.envh.agt_top.agth[1].monh [APB MONITOR] PRINTING FROM MONITOR
# UVM_INFO ../agent/driver.sv(67) @ 585: uvm_test_top.envh.agt_top.agth[0].drvh [DRIVER] DATA FROM DRIVER 
#  -----------------------------------------
# Name           Type      Size  Value     
# -----------------------------------------
# req            xtn       -     @969      
#   paddr        integral  32    'h0       
#   presetn      integral  1     'd0       
#   pwdata       integral  32    3181154208
#   prdata       integral  32    'd0       
#   psel         integral  1     'd0       
#   pwrite       integral  1     1         
#   penable      integral  1     'd0       
#   pready       integral  1     'd0       
#   pslaverr     integral  1     'd0       
#   FCR          integral  8     'd0       
#   LCR          integral  8     'd0       
#   DIV1         integral  8     'd0       
#   IER          integral  8     'd0       
#   MSR          integral  8     'd0       
#   IIR          integral  8     'b0       
#   IRQ          integral  8     'd0       
#   MCR          integral  8     'b0       
#   LSR          integral  8     'b0       
#   data_in_thr  integral  1     'd0       
#   data_in_rbr  integral  1     'd0       
#   d1_access    integral  1     'd0       
# -----------------------------------------
# 
# UVM_INFO ../agent/monitor.sv(118) @ 585: uvm_test_top.envh.agt_top.agth[0].monh [APB MONITOR] PRINTING FROM MONITOR
# UVM_INFO ../agent/driver.sv(67) @ 615: uvm_test_top.envh.agt_top.agth[0].drvh [DRIVER] DATA FROM DRIVER 
#  -----------------------------------------
# Name           Type      Size  Value     
# -----------------------------------------
# req            xtn       -     @969      
#   paddr        integral  32    'h0       
#   presetn      integral  1     'd0       
#   pwdata       integral  32    2962708684
#   prdata       integral  32    'd0       
#   psel         integral  1     'd0       
#   pwrite       integral  1     1         
#   penable      integral  1     'd0       
#   pready       integral  1     'd0       
#   pslaverr     integral  1     'd0       
#   FCR          integral  8     'd0       
#   LCR          integral  8     'd0       
#   DIV1         integral  8     'd0       
#   IER          integral  8     'd0       
#   MSR          integral  8     'd0       
#   IIR          integral  8     'b0       
#   IRQ          integral  8     'd0       
#   MCR          integral  8     'b0       
#   LSR          integral  8     'b0       
#   data_in_thr  integral  1     'd0       
#   data_in_rbr  integral  1     'd0       
#   d1_access    integral  1     'd0       
# -----------------------------------------
# 
# UVM_INFO ../agent/monitor.sv(118) @ 615: uvm_test_top.envh.agt_top.agth[0].monh [APB MONITOR] PRINTING FROM MONITOR
# UVM_INFO ../agent/driver.sv(67) @ 630: uvm_test_top.envh.agt_top.agth[1].drvh [DRIVER] DATA FROM DRIVER 
#  -------------------------------------------
# Name           Type      Size  Value       
# -------------------------------------------
# req            xtn       -     @973        
#   paddr        integral  32    'h0         
#   presetn      integral  1     'd0         
#   pwdata       integral  32    'd1513174550
#   prdata       integral  32    'd0         
#   psel         integral  1     'd0         
#   pwrite       integral  1     1           
#   penable      integral  1     'd0         
#   pready       integral  1     'd0         
#   pslaverr     integral  1     'd0         
#   FCR          integral  8     'd0         
#   LCR          integral  8     'd0         
#   DIV1         integral  8     'd0         
#   IER          integral  8     'd0         
#   MSR          integral  8     'd0         
#   IIR          integral  8     'b0         
#   IRQ          integral  8     'd0         
#   MCR          integral  8     'b0         
#   LSR          integral  8     'b0         
#   data_in_thr  integral  1     'd0         
#   data_in_rbr  integral  1     'd0         
#   d1_access    integral  1     'd0         
# -------------------------------------------
# 
# UVM_INFO ../agent/monitor.sv(118) @ 630: uvm_test_top.envh.agt_top.agth[1].monh [APB MONITOR] PRINTING FROM MONITOR
# UVM_INFO ../agent/driver.sv(67) @ 645: uvm_test_top.envh.agt_top.agth[0].drvh [DRIVER] DATA FROM DRIVER 
#  -------------------------------------------
# Name           Type      Size  Value       
# -------------------------------------------
# req            xtn       -     @969        
#   paddr        integral  32    'h0         
#   presetn      integral  1     'd0         
#   pwdata       integral  32    'd1212133039
#   prdata       integral  32    'd0         
#   psel         integral  1     'd0         
#   pwrite       integral  1     1           
#   penable      integral  1     'd0         
#   pready       integral  1     'd0         
#   pslaverr     integral  1     'd0         
#   FCR          integral  8     'd0         
#   LCR          integral  8     'd0         
#   DIV1         integral  8     'd0         
#   IER          integral  8     'd0         
#   MSR          integral  8     'd0         
#   IIR          integral  8     'b0         
#   IRQ          integral  8     'd0         
#   MCR          integral  8     'b0         
#   LSR          integral  8     'b0         
#   data_in_thr  integral  1     'd0         
#   data_in_rbr  integral  1     'd0         
#   d1_access    integral  1     'd0         
# -------------------------------------------
# 
# UVM_INFO ../agent/monitor.sv(118) @ 645: uvm_test_top.envh.agt_top.agth[0].monh [APB MONITOR] PRINTING FROM MONITOR
# UVM_INFO ../agent/driver.sv(67) @ 675: uvm_test_top.envh.agt_top.agth[0].drvh [DRIVER] DATA FROM DRIVER 
#  -----------------------------------------
# Name           Type      Size  Value     
# -----------------------------------------
# req            xtn       -     @969      
#   paddr        integral  32    'h0       
#   presetn      integral  1     'd0       
#   pwdata       integral  32    4193134394
#   prdata       integral  32    'd0       
#   psel         integral  1     'd0       
#   pwrite       integral  1     1         
#   penable      integral  1     'd0       
#   pready       integral  1     'd0       
#   pslaverr     integral  1     'd0       
#   FCR          integral  8     'd0       
#   LCR          integral  8     'd0       
#   DIV1         integral  8     'd0       
#   IER          integral  8     'd0       
#   MSR          integral  8     'd0       
#   IIR          integral  8     'b0       
#   IRQ          integral  8     'd0       
#   MCR          integral  8     'b0       
#   LSR          integral  8     'b0       
#   data_in_thr  integral  1     'd0       
#   data_in_rbr  integral  1     'd0       
#   d1_access    integral  1     'd0       
# -----------------------------------------
# 
# UVM_INFO ../agent/monitor.sv(118) @ 675: uvm_test_top.envh.agt_top.agth[0].monh [APB MONITOR] PRINTING FROM MONITOR
# UVM_INFO ../agent/driver.sv(67) @ 690: uvm_test_top.envh.agt_top.agth[1].drvh [DRIVER] DATA FROM DRIVER 
#  -------------------------------------------
# Name           Type      Size  Value       
# -------------------------------------------
# req            xtn       -     @973        
#   paddr        integral  32    'h0         
#   presetn      integral  1     'd0         
#   pwdata       integral  32    'd2146284002
#   prdata       integral  32    'd0         
#   psel         integral  1     'd0         
#   pwrite       integral  1     1           
#   penable      integral  1     'd0         
#   pready       integral  1     'd0         
#   pslaverr     integral  1     'd0         
#   FCR          integral  8     'd0         
#   LCR          integral  8     'd0         
#   DIV1         integral  8     'd0         
#   IER          integral  8     'd0         
#   MSR          integral  8     'd0         
#   IIR          integral  8     'b0         
#   IRQ          integral  8     'd0         
#   MCR          integral  8     'b0         
#   LSR          integral  8     'b0         
#   data_in_thr  integral  1     'd0         
#   data_in_rbr  integral  1     'd0         
#   d1_access    integral  1     'd0         
# -------------------------------------------
# 
# UVM_INFO ../agent/monitor.sv(118) @ 690: uvm_test_top.envh.agt_top.agth[1].monh [APB MONITOR] PRINTING FROM MONITOR
# UVM_INFO ../agent/driver.sv(67) @ 705: uvm_test_top.envh.agt_top.agth[0].drvh [DRIVER] DATA FROM DRIVER 
#  -----------------------------------------
# Name           Type      Size  Value     
# -----------------------------------------
# req            xtn       -     @969      
#   paddr        integral  32    'h0       
#   presetn      integral  1     'd0       
#   pwdata       integral  32    3991028774
#   prdata       integral  32    'd0       
#   psel         integral  1     'd0       
#   pwrite       integral  1     1         
#   penable      integral  1     'd0       
#   pready       integral  1     'd0       
#   pslaverr     integral  1     'd0       
#   FCR          integral  8     'd0       
#   LCR          integral  8     'd0       
#   DIV1         integral  8     'd0       
#   IER          integral  8     'd0       
#   MSR          integral  8     'd0       
#   IIR          integral  8     'b0       
#   IRQ          integral  8     'd0       
#   MCR          integral  8     'b0       
#   LSR          integral  8     'b0       
#   data_in_thr  integral  1     'd0       
#   data_in_rbr  integral  1     'd0       
#   d1_access    integral  1     'd0       
# -----------------------------------------
# 
# UVM_INFO ../agent/monitor.sv(118) @ 705: uvm_test_top.envh.agt_top.agth[0].monh [APB MONITOR] PRINTING FROM MONITOR
# UVM_INFO ../agent/driver.sv(67) @ 750: uvm_test_top.envh.agt_top.agth[1].drvh [DRIVER] DATA FROM DRIVER 
#  -----------------------------------------
# Name           Type      Size  Value     
# -----------------------------------------
# req            xtn       -     @973      
#   paddr        integral  32    'h0       
#   presetn      integral  1     'd0       
#   pwdata       integral  32    3972491051
#   prdata       integral  32    'd0       
#   psel         integral  1     'd0       
#   pwrite       integral  1     1         
#   penable      integral  1     'd0       
#   pready       integral  1     'd0       
#   pslaverr     integral  1     'd0       
#   FCR          integral  8     'd0       
#   LCR          integral  8     'd0       
#   DIV1         integral  8     'd0       
#   IER          integral  8     'd0       
#   MSR          integral  8     'd0       
#   IIR          integral  8     'b0       
#   IRQ          integral  8     'd0       
#   MCR          integral  8     'b0       
#   LSR          integral  8     'b0       
#   data_in_thr  integral  1     'd0       
#   data_in_rbr  integral  1     'd0       
#   d1_access    integral  1     'd0       
# -----------------------------------------
# 
# UVM_INFO ../agent/monitor.sv(118) @ 750: uvm_test_top.envh.agt_top.agth[1].monh [APB MONITOR] PRINTING FROM MONITOR
# UVM_INFO ../agent/driver.sv(67) @ 810: uvm_test_top.envh.agt_top.agth[1].drvh [DRIVER] DATA FROM DRIVER 
#  ------------------------------------------
# Name           Type      Size  Value      
# ------------------------------------------
# req            xtn       -     @973       
#   paddr        integral  32    'h0        
#   presetn      integral  1     'd0        
#   pwdata       integral  32    'd420264871
#   prdata       integral  32    'd0        
#   psel         integral  1     'd0        
#   pwrite       integral  1     1          
#   penable      integral  1     'd0        
#   pready       integral  1     'd0        
#   pslaverr     integral  1     'd0        
#   FCR          integral  8     'd0        
#   LCR          integral  8     'd0        
#   DIV1         integral  8     'd0        
#   IER          integral  8     'd0        
#   MSR          integral  8     'd0        
#   IIR          integral  8     'b0        
#   IRQ          integral  8     'd0        
#   MCR          integral  8     'b0        
#   LSR          integral  8     'b0        
#   data_in_thr  integral  1     'd0        
#   data_in_rbr  integral  1     'd0        
#   d1_access    integral  1     'd0        
# ------------------------------------------
# 
# UVM_INFO ../agent/monitor.sv(118) @ 810: uvm_test_top.envh.agt_top.agth[1].monh [APB MONITOR] PRINTING FROM MONITOR
# UVM_INFO ../agent/driver.sv(67) @ 870: uvm_test_top.envh.agt_top.agth[1].drvh [DRIVER] DATA FROM DRIVER 
#  -------------------------------------------
# Name           Type      Size  Value       
# -------------------------------------------
# req            xtn       -     @973        
#   paddr        integral  32    'h0         
#   presetn      integral  1     'd0         
#   pwdata       integral  32    'd1722439740
#   prdata       integral  32    'd0         
#   psel         integral  1     'd0         
#   pwrite       integral  1     1           
#   penable      integral  1     'd0         
#   pready       integral  1     'd0         
#   pslaverr     integral  1     'd0         
#   FCR          integral  8     'd0         
#   LCR          integral  8     'd0         
#   DIV1         integral  8     'd0         
#   IER          integral  8     'd0         
#   MSR          integral  8     'd0         
#   IIR          integral  8     'b0         
#   IRQ          integral  8     'd0         
#   MCR          integral  8     'b0         
#   LSR          integral  8     'b0         
#   data_in_thr  integral  1     'd0         
#   data_in_rbr  integral  1     'd0         
#   d1_access    integral  1     'd0         
# -------------------------------------------
# 
# UVM_INFO ../agent/monitor.sv(118) @ 870: uvm_test_top.envh.agt_top.agth[1].monh [APB MONITOR] PRINTING FROM MONITOR
# UVM_INFO ../agent/driver.sv(67) @ 930: uvm_test_top.envh.agt_top.agth[1].drvh [DRIVER] DATA FROM DRIVER 
#  -------------------------------------------
# Name           Type      Size  Value       
# -------------------------------------------
# req            xtn       -     @973        
#   paddr        integral  32    'h0         
#   presetn      integral  1     'd0         
#   pwdata       integral  32    'd2093763734
#   prdata       integral  32    'd0         
#   psel         integral  1     'd0         
#   pwrite       integral  1     1           
#   penable      integral  1     'd0         
#   pready       integral  1     'd0         
#   pslaverr     integral  1     'd0         
#   FCR          integral  8     'd0         
#   LCR          integral  8     'd0         
#   DIV1         integral  8     'd0         
#   IER          integral  8     'd0         
#   MSR          integral  8     'd0         
#   IIR          integral  8     'b0         
#   IRQ          integral  8     'd0         
#   MCR          integral  8     'b0         
#   LSR          integral  8     'b0         
#   data_in_thr  integral  1     'd0         
#   data_in_rbr  integral  1     'd0         
#   d1_access    integral  1     'd0         
# -------------------------------------------
# 
# UVM_INFO ../agent/monitor.sv(118) @ 930: uvm_test_top.envh.agt_top.agth[1].monh [APB MONITOR] PRINTING FROM MONITOR
# UVM_INFO ../agent/driver.sv(67) @ 990: uvm_test_top.envh.agt_top.agth[1].drvh [DRIVER] DATA FROM DRIVER 
#  ------------------------------------------
# Name           Type      Size  Value      
# ------------------------------------------
# req            xtn       -     @973       
#   paddr        integral  32    'h0        
#   presetn      integral  1     'd0        
#   pwdata       integral  32    'd266142841
#   prdata       integral  32    'd0        
#   psel         integral  1     'd0        
#   pwrite       integral  1     1          
#   penable      integral  1     'd0        
#   pready       integral  1     'd0        
#   pslaverr     integral  1     'd0        
#   FCR          integral  8     'd0        
#   LCR          integral  8     'd0        
#   DIV1         integral  8     'd0        
#   IER          integral  8     'd0        
#   MSR          integral  8     'd0        
#   IIR          integral  8     'b0        
#   IRQ          integral  8     'd0        
#   MCR          integral  8     'b0        
#   LSR          integral  8     'b0        
#   data_in_thr  integral  1     'd0        
#   data_in_rbr  integral  1     'd0        
#   d1_access    integral  1     'd0        
# ------------------------------------------
# 
# UVM_INFO ../agent/monitor.sv(118) @ 990: uvm_test_top.envh.agt_top.agth[1].monh [APB MONITOR] PRINTING FROM MONITOR
# UVM_INFO ../agent/driver.sv(67) @ 1050: uvm_test_top.envh.agt_top.agth[1].drvh [DRIVER] DATA FROM DRIVER 
#  ------------------------------------------
# Name           Type      Size  Value      
# ------------------------------------------
# req            xtn       -     @973       
#   paddr        integral  32    'h0        
#   presetn      integral  1     'd0        
#   pwdata       integral  32    'd377217791
#   prdata       integral  32    'd0        
#   psel         integral  1     'd0        
#   pwrite       integral  1     1          
#   penable      integral  1     'd0        
#   pready       integral  1     'd0        
#   pslaverr     integral  1     'd0        
#   FCR          integral  8     'd0        
#   LCR          integral  8     'd0        
#   DIV1         integral  8     'd0        
#   IER          integral  8     'd0        
#   MSR          integral  8     'd0        
#   IIR          integral  8     'b0        
#   IRQ          integral  8     'd0        
#   MCR          integral  8     'b0        
#   LSR          integral  8     'b0        
#   data_in_thr  integral  1     'd0        
#   data_in_rbr  integral  1     'd0        
#   d1_access    integral  1     'd0        
# ------------------------------------------
# 
# UVM_INFO ../agent/monitor.sv(118) @ 1050: uvm_test_top.envh.agt_top.agth[1].monh [APB MONITOR] PRINTING FROM MONITOR
# UVM_INFO ../agent/driver.sv(67) @ 1110: uvm_test_top.envh.agt_top.agth[1].drvh [DRIVER] DATA FROM DRIVER 
#  -----------------------------------------
# Name           Type      Size  Value     
# -----------------------------------------
# req            xtn       -     @973      
#   paddr        integral  32    'h0       
#   presetn      integral  1     'd0       
#   pwdata       integral  32    2267699800
#   prdata       integral  32    'd0       
#   psel         integral  1     'd0       
#   pwrite       integral  1     1         
#   penable      integral  1     'd0       
#   pready       integral  1     'd0       
#   pslaverr     integral  1     'd0       
#   FCR          integral  8     'd0       
#   LCR          integral  8     'd0       
#   DIV1         integral  8     'd0       
#   IER          integral  8     'd0       
#   MSR          integral  8     'd0       
#   IIR          integral  8     'b0       
#   IRQ          integral  8     'd0       
#   MCR          integral  8     'b0       
#   LSR          integral  8     'b0       
#   data_in_thr  integral  1     'd0       
#   data_in_rbr  integral  1     'd0       
#   d1_access    integral  1     'd0       
# -----------------------------------------
# 
# UVM_INFO ../agent/monitor.sv(118) @ 1110: uvm_test_top.envh.agt_top.agth[1].monh [APB MONITOR] PRINTING FROM MONITOR
# UVM_INFO ../agent/driver.sv(67) @ 1170: uvm_test_top.envh.agt_top.agth[1].drvh [DRIVER] DATA FROM DRIVER 
#  -----------------------------------------
# Name           Type      Size  Value     
# -----------------------------------------
# req            xtn       -     @973      
#   paddr        integral  32    'h0       
#   presetn      integral  1     'd0       
#   pwdata       integral  32    2745732377
#   prdata       integral  32    'd0       
#   psel         integral  1     'd0       
#   pwrite       integral  1     1         
#   penable      integral  1     'd0       
#   pready       integral  1     'd0       
#   pslaverr     integral  1     'd0       
#   FCR          integral  8     'd0       
#   LCR          integral  8     'd0       
#   DIV1         integral  8     'd0       
#   IER          integral  8     'd0       
#   MSR          integral  8     'd0       
#   IIR          integral  8     'b0       
#   IRQ          integral  8     'd0       
#   MCR          integral  8     'b0       
#   LSR          integral  8     'b0       
#   data_in_thr  integral  1     'd0       
#   data_in_rbr  integral  1     'd0       
#   d1_access    integral  1     'd0       
# -----------------------------------------
# 
# UVM_INFO ../agent/monitor.sv(118) @ 1170: uvm_test_top.envh.agt_top.agth[1].monh [APB MONITOR] PRINTING FROM MONITOR
# UVM_INFO ../agent/driver.sv(67) @ 1230: uvm_test_top.envh.agt_top.agth[1].drvh [DRIVER] DATA FROM DRIVER 
#  -----------------------------------------
# Name           Type      Size  Value     
# -----------------------------------------
# req            xtn       -     @973      
#   paddr        integral  32    'h0       
#   presetn      integral  1     'd0       
#   pwdata       integral  32    2377976102
#   prdata       integral  32    'd0       
#   psel         integral  1     'd0       
#   pwrite       integral  1     1         
#   penable      integral  1     'd0       
#   pready       integral  1     'd0       
#   pslaverr     integral  1     'd0       
#   FCR          integral  8     'd0       
#   LCR          integral  8     'd0       
#   DIV1         integral  8     'd0       
#   IER          integral  8     'd0       
#   MSR          integral  8     'd0       
#   IIR          integral  8     'b0       
#   IRQ          integral  8     'd0       
#   MCR          integral  8     'b0       
#   LSR          integral  8     'b0       
#   data_in_thr  integral  1     'd0       
#   data_in_rbr  integral  1     'd0       
#   d1_access    integral  1     'd0       
# -----------------------------------------
# 
# UVM_INFO ../agent/monitor.sv(118) @ 1230: uvm_test_top.envh.agt_top.agth[1].monh [APB MONITOR] PRINTING FROM MONITOR
# UVM_INFO ../agent/driver.sv(67) @ 1290: uvm_test_top.envh.agt_top.agth[1].drvh [DRIVER] DATA FROM DRIVER 
#  ------------------------------------------
# Name           Type      Size  Value      
# ------------------------------------------
# req            xtn       -     @973       
#   paddr        integral  32    'h0        
#   presetn      integral  1     'd0        
#   pwdata       integral  32    'd872624570
#   prdata       integral  32    'd0        
#   psel         integral  1     'd0        
#   pwrite       integral  1     1          
#   penable      integral  1     'd0        
#   pready       integral  1     'd0        
#   pslaverr     integral  1     'd0        
#   FCR          integral  8     'd0        
#   LCR          integral  8     'd0        
#   DIV1         integral  8     'd0        
#   IER          integral  8     'd0        
#   MSR          integral  8     'd0        
#   IIR          integral  8     'b0        
#   IRQ          integral  8     'd0        
#   MCR          integral  8     'b0        
#   LSR          integral  8     'b0        
#   data_in_thr  integral  1     'd0        
#   data_in_rbr  integral  1     'd0        
#   d1_access    integral  1     'd0        
# ------------------------------------------
# 
# UVM_INFO ../agent/monitor.sv(118) @ 1290: uvm_test_top.envh.agt_top.agth[1].monh [APB MONITOR] PRINTING FROM MONITOR
# UVM_INFO ../agent/driver.sv(67) @ 1350: uvm_test_top.envh.agt_top.agth[1].drvh [DRIVER] DATA FROM DRIVER 
#  -----------------------------------------
# Name           Type      Size  Value     
# -----------------------------------------
# req            xtn       -     @973      
#   paddr        integral  32    'h0       
#   presetn      integral  1     'd0       
#   pwdata       integral  32    3109362194
#   prdata       integral  32    'd0       
#   psel         integral  1     'd0       
#   pwrite       integral  1     1         
#   penable      integral  1     'd0       
#   pready       integral  1     'd0       
#   pslaverr     integral  1     'd0       
#   FCR          integral  8     'd0       
#   LCR          integral  8     'd0       
#   DIV1         integral  8     'd0       
#   IER          integral  8     'd0       
#   MSR          integral  8     'd0       
#   IIR          integral  8     'b0       
#   IRQ          integral  8     'd0       
#   MCR          integral  8     'b0       
#   LSR          integral  8     'b0       
#   data_in_thr  integral  1     'd0       
#   data_in_rbr  integral  1     'd0       
#   d1_access    integral  1     'd0       
# -----------------------------------------
# 
# UVM_INFO ../agent/monitor.sv(118) @ 1350: uvm_test_top.envh.agt_top.agth[1].monh [APB MONITOR] PRINTING FROM MONITOR
# UVM_INFO ../agent/driver.sv(67) @ 1410: uvm_test_top.envh.agt_top.agth[1].drvh [DRIVER] DATA FROM DRIVER 
#  ------------------------------------------
# Name           Type      Size  Value      
# ------------------------------------------
# req            xtn       -     @973       
#   paddr        integral  32    'h0        
#   presetn      integral  1     'd0        
#   pwdata       integral  32    'd841835433
#   prdata       integral  32    'd0        
#   psel         integral  1     'd0        
#   pwrite       integral  1     1          
#   penable      integral  1     'd0        
#   pready       integral  1     'd0        
#   pslaverr     integral  1     'd0        
#   FCR          integral  8     'd0        
#   LCR          integral  8     'd0        
#   DIV1         integral  8     'd0        
#   IER          integral  8     'd0        
#   MSR          integral  8     'd0        
#   IIR          integral  8     'b0        
#   IRQ          integral  8     'd0        
#   MCR          integral  8     'b0        
#   LSR          integral  8     'b0        
#   data_in_thr  integral  1     'd0        
#   data_in_rbr  integral  1     'd0        
#   d1_access    integral  1     'd0        
# ------------------------------------------
# 
# UVM_INFO ../agent/monitor.sv(118) @ 1410: uvm_test_top.envh.agt_top.agth[1].monh [APB MONITOR] PRINTING FROM MONITOR
# UVM_INFO ../agent/monitor.sv(118) @ 1390850: uvm_test_top.envh.agt_top.agth[1].monh [APB MONITOR] PRINTING FROM MONITOR
# UVM_INFO ../agent/driver.sv(67) @ 1390870: uvm_test_top.envh.agt_top.agth[1].drvh [DRIVER] DATA FROM DRIVER 
#  -----------------------------------------
# Name           Type      Size  Value     
# -----------------------------------------
# req            xtn       -     @973      
#   paddr        integral  32    'h8       
#   presetn      integral  1     'd0       
#   pwdata       integral  32    3530759806
#   prdata       integral  32    'd0       
#   psel         integral  1     'd0       
#   pwrite       integral  1     'd0       
#   penable      integral  1     'd0       
#   pready       integral  1     'd0       
#   pslaverr     integral  1     'd0       
#   FCR          integral  8     'd0       
#   LCR          integral  8     'd0       
#   DIV1         integral  8     'd0       
#   IER          integral  8     'd0       
#   MSR          integral  8     'd0       
#   IIR          integral  8     'b11000110
#   IRQ          integral  8     'd0       
#   MCR          integral  8     'b0       
#   LSR          integral  8     'b0       
#   data_in_thr  integral  1     'd0       
#   data_in_rbr  integral  1     'd0       
#   d1_access    integral  1     'd0       
# -----------------------------------------
# 
# UVM_INFO ../agent/monitor.sv(118) @ 1390910: uvm_test_top.envh.agt_top.agth[1].monh [APB MONITOR] PRINTING FROM MONITOR
# UVM_INFO ../agent/driver.sv(67) @ 1390990: uvm_test_top.envh.agt_top.agth[1].drvh [DRIVER] DATA FROM DRIVER 
#  ------------------------------------------
# Name           Type      Size  Value      
# ------------------------------------------
# req            xtn       -     @973       
#   paddr        integral  32    'h14       
#   presetn      integral  1     'd0        
#   pwdata       integral  32    'd463528582
#   prdata       integral  32    'd0        
#   psel         integral  1     'd0        
#   pwrite       integral  1     'd0        
#   penable      integral  1     'd0        
#   pready       integral  1     'd0        
#   pslaverr     integral  1     'd0        
#   FCR          integral  8     'd0        
#   LCR          integral  8     'd0        
#   DIV1         integral  8     'd0        
#   IER          integral  8     'd0        
#   MSR          integral  8     'd0        
#   IIR          integral  8     'b11000110 
#   IRQ          integral  8     'd0        
#   MCR          integral  8     'b0        
#   LSR          integral  8     'b0        
#   data_in_thr  integral  1     'd0        
#   data_in_rbr  integral  1     'd0        
#   d1_access    integral  1     'd0        
# ------------------------------------------
# 
# UVM_INFO ../agent/monitor.sv(118) @ 1390990: uvm_test_top.envh.agt_top.agth[1].monh [APB MONITOR] PRINTING FROM MONITOR
# UVM_INFO ../agent/monitor.sv(118) @ 1391215: uvm_test_top.envh.agt_top.agth[0].monh [APB MONITOR] PRINTING FROM MONITOR
# UVM_INFO ../agent/driver.sv(67) @ 1391225: uvm_test_top.envh.agt_top.agth[0].drvh [DRIVER] DATA FROM DRIVER 
#  -----------------------------------------
# Name           Type      Size  Value     
# -----------------------------------------
# req            xtn       -     @969      
#   paddr        integral  32    'h8       
#   presetn      integral  1     'd0       
#   pwdata       integral  32    2471650263
#   prdata       integral  32    'd0       
#   psel         integral  1     'd0       
#   pwrite       integral  1     'd0       
#   penable      integral  1     'd0       
#   pready       integral  1     'd0       
#   pslaverr     integral  1     'd0       
#   FCR          integral  8     'd0       
#   LCR          integral  8     'd0       
#   DIV1         integral  8     'd0       
#   IER          integral  8     'd0       
#   MSR          integral  8     'd0       
#   IIR          integral  8     'b11000110
#   IRQ          integral  8     'd0       
#   MCR          integral  8     'b0       
#   LSR          integral  8     'b0       
#   data_in_thr  integral  1     'd0       
#   data_in_rbr  integral  1     'd0       
#   d1_access    integral  1     'd0       
# -----------------------------------------
# 
# UVM_INFO ../agent/monitor.sv(118) @ 1391245: uvm_test_top.envh.agt_top.agth[0].monh [APB MONITOR] PRINTING FROM MONITOR
# UVM_INFO ../agent/driver.sv(67) @ 1391285: uvm_test_top.envh.agt_top.agth[0].drvh [DRIVER] DATA FROM DRIVER 
#  -----------------------------------------
# Name           Type      Size  Value     
# -----------------------------------------
# req            xtn       -     @969      
#   paddr        integral  32    'h14      
#   presetn      integral  1     'd0       
#   pwdata       integral  32    2549058445
#   prdata       integral  32    'd0       
#   psel         integral  1     'd0       
#   pwrite       integral  1     'd0       
#   penable      integral  1     'd0       
#   pready       integral  1     'd0       
#   pslaverr     integral  1     'd0       
#   FCR          integral  8     'd0       
#   LCR          integral  8     'd0       
#   DIV1         integral  8     'd0       
#   IER          integral  8     'd0       
#   MSR          integral  8     'd0       
#   IIR          integral  8     'b11000110
#   IRQ          integral  8     'd0       
#   MCR          integral  8     'b0       
#   LSR          integral  8     'b0       
#   data_in_thr  integral  1     'd0       
#   data_in_rbr  integral  1     'd0       
#   d1_access    integral  1     'd0       
# -----------------------------------------
# 
# UVM_INFO ../agent/monitor.sv(118) @ 1391285: uvm_test_top.envh.agt_top.agth[0].monh [APB MONITOR] PRINTING FROM MONITOR
# UVM_INFO verilog_src/uvm-1.1d/src/base/uvm_objection.svh(1267) @ 1391385: reporter [TEST_DONE] 'run' phase is ready to proceed to the 'extract' phase
# uart1 THR size :          17
# uart2 RBR size :           0
# uart2 THR size :          17
# uart1 RBR size :           0
# uart1 THR : '{68, 7, 60, 151, 245, 135, 11, 232, 236, 24, 171, 116, 160, 204, 175, 58, 38}
# uart2 RBR : '{}
# uart2 THR : '{144, 207, 187, 22, 226, 43, 167, 60, 150, 121, 255, 88, 25, 38, 186, 18, 169}
# uart1 RBR : '{}
# IIR xtn 1 --------------  0011
# IIR xtn 2--------------  0011
# LSR xtn 1---------------00000011
# LSR xtn 2---------------00000011
# UVM_INFO ../tb/sb.sv(171) @ 1391385: uvm_test_top.envh.sbh [sb] 
# 
#  THR FIFO EMPTY OCCURED
# 
# --- UVM Report Summary ---
# 
# ** Report counts by severity
# UVM_INFO :  104
# UVM_WARNING :    0
# UVM_ERROR :    0
# UVM_FATAL :    0
# ** Report counts by id
# [APB MONITOR]    50
# [DRIVER]    48
# [Questa UVM]     2
# [RNTST]     1
# [TEST_DONE]     1
# [UVMTOP]     1
# [sb]     1
# ** Note: $finish    : /home/cad/eda/Mentor_Graphics/Questasim/questasim/linux_x86_64/../verilog_src/uvm-1.1d/src/base/uvm_root.svh(430)
#    Time: 1391385 ns  Iteration: 54  Instance: /top
# Saving coverage database on exit...
# End time: 14:34:02 on Mar 09,2026, Elapsed time: 0:00:02
# Errors: 0, Warnings: 1
